<Qucs Dataset 0.0.15>
<indep x 10>
  +5.00000000000e+00
  +1.00000000000e+01
  +1.50000000000e+01
  +2.00000000000e+01
  +2.50000000000e+01
  +3.00000000000e+01
  +3.50000000000e+01
  +4.00000000000e+01
  +4.50000000000e+01
  +5.00000000000e+01
</indep>
<dep V1.I x>
  -3.44000000000e+00
  -2.29333333333e+00
  -1.72000000000e+00
  -1.37600000000e+00
  -1.14666666667e+00
  -9.82857142857e-01
  -8.60000000000e-01
  -7.64444444444e-01
  -6.88000000000e-01
  -6.25454545455e-01
</dep>
<dep izeja.V x>
  +1.72000000000e+01
  +2.29333333333e+01
  +2.58000000000e+01
  +2.75200000000e+01
  +2.86666666667e+01
  +2.94857142857e+01
  +3.01000000000e+01
  +3.05777777778e+01
  +3.09600000000e+01
  +3.12727272727e+01
</dep>
<dep _net0.V x>
  +3.44000000000e+01
  +3.44000000000e+01
  +3.44000000000e+01
  +3.44000000000e+01
  +3.44000000000e+01
  +3.44000000000e+01
  +3.44000000000e+01
  +3.44000000000e+01
  +3.44000000000e+01
  +3.44000000000e+01
</dep>
